Study Cases\Study Case\All calculations.ElmRes,Grid\G1.ElmSym,Grid\G2.ElmSym,Grid\G3.ElmSym,Grid\G4.ElmSym,Grid\G1.ElmSym,Grid\G2.ElmSym,Grid\G3.ElmSym,Grid\G4.ElmSym,Grid\G1.ElmSym,Grid\G2.ElmSym,Grid\G3.ElmSym,Grid\G4.ElmSym,Grid\G1.ElmSym,Grid\G2.ElmSym,Grid\G3.ElmSym,Grid\G4.ElmSym
"b:tnow in s","s:phi in rad","s:phi in rad","s:phi in rad","s:phi in rad","s:speed in p.u.","s:speed in p.u.","s:speed in p.u.","s:speed in p.u.","c:ussq in p.u.","c:ussq in p.u.","c:ussq in p.u.","c:ussq in p.u.","c:ussd in p.u.","c:ussd in p.u.","c:ussd in p.u.","c:ussd in p.u."
0.000000,-0.345175,-0.533926,-0.798139,-0.992472,1.000000,1.000000,1.000000,1.000000,0.916934,0.926312,0.906899,0.907243,0.600866,0.577580,0.613249,0.591113
0.005000,-0.345175,-0.533926,-0.798139,-0.992472,1.000000,1.000000,1.000000,1.000000,0.916934,0.926312,0.906899,0.907243,0.600866,0.577580,0.613249,0.591113
0.010000,-0.345175,-0.533926,-0.798139,-0.992472,1.000000,1.000000,1.000000,1.000000,0.916934,0.926312,0.906899,0.907243,0.600866,0.577580,0.613249,0.591113
0.015000,-0.345175,-0.533926,-0.798139,-0.992472,1.000000,1.000000,1.000000,1.000000,0.916934,0.926312,0.906899,0.907243,0.600866,0.577580,0.613249,0.591113
0.020000,-0.345175,-0.533926,-0.798139,-0.992472,1.000000,1.000000,1.000000,1.000000,0.916934,0.926312,0.906899,0.907243,0.600866,0.577580,0.613249,0.591113
0.025000,-0.345175,-0.533926,-0.798139,-0.992472,1.000000,1.000000,1.000000,1.000000,0.916934,0.926312,0.906899,0.907243,0.600866,0.577580,0.613249,0.591113
0.030000,-0.345175,-0.533926,-0.798139,-0.992472,1.000000,1.000000,1.000000,1.000000,0.916934,0.926312,0.906899,0.907243,0.600866,0.577580,0.613249,0.591113
0.035000,-0.345175,-0.533926,-0.798139,-0.992472,1.000000,1.000000,1.000000,1.000000,0.916934,0.926312,0.906899,0.907243,0.600866,0.577580,0.613249,0.591113
0.040000,-0.345175,-0.533926,-0.798139,-0.992472,1.000000,1.000000,1.000000,1.000000,0.916934,0.926312,0.906899,0.907243,0.600866,0.577580,0.613249,0.591113
0.045000,-0.345175,-0.533926,-0.798139,-0.992472,1.000000,1.000000,1.000000,1.000000,0.916934,0.926312,0.906899,0.907243,0.600866,0.577580,0.613249,0.591113
0.050000,-0.345175,-0.533926,-0.798139,-0.992472,1.000000,1.000000,1.000000,1.000000,0.916934,0.926312,0.906899,0.907243,0.600866,0.577580,0.613249,0.591113
0.055000,-0.345175,-0.533926,-0.798139,-0.992472,1.000000,1.000000,1.000000,1.000000,0.916934,0.926312,0.906899,0.907243,0.600866,0.577580,0.613249,0.591113
0.060000,-0.345175,-0.533926,-0.798139,-0.992472,1.000000,1.000000,1.000000,1.000000,0.916934,0.926312,0.906899,0.907243,0.600866,0.577580,0.613249,0.591113
0.065000,-0.345175,-0.533926,-0.798139,-0.992472,1.000000,1.000000,1.000000,1.000000,0.916934,0.926312,0.906899,0.907243,0.600866,0.577580,0.613249,0.591113
0.070000,-0.345175,-0.533926,-0.798139,-0.992472,1.000000,1.000000,1.000000,1.000000,0.916934,0.926312,0.906899,0.907243,0.600866,0.577580,0.613249,0.591113
0.075000,-0.345175,-0.533926,-0.798139,-0.992472,1.000000,1.000000,1.000000,1.000000,0.916934,0.926312,0.906899,0.907243,0.600866,0.577580,0.613249,0.591113
0.080000,-0.345175,-0.533926,-0.798139,-0.992472,1.000000,1.000000,1.000000,1.000000,0.916934,0.926312,0.906899,0.907243,0.600866,0.577580,0.613249,0.591113
0.085000,-0.345175,-0.533926,-0.798139,-0.992472,1.000000,1.000000,1.000000,1.000000,0.916934,0.926312,0.906899,0.907243,0.600866,0.577580,0.613249,0.591113
0.090000,-0.345175,-0.533926,-0.798139,-0.992472,1.000000,1.000000,1.000000,1.000000,0.916934,0.926312,0.906899,0.907243,0.600866,0.577580,0.613249,0.591113
0.095000,-0.345175,-0.533926,-0.798139,-0.992472,1.000000,1.000000,1.000000,1.000000,0.916934,0.926312,0.906899,0.907243,0.600866,0.577580,0.613249,0.591113
0.100000,-0.345175,-0.533926,-0.798139,-0.992472,1.000000,1.000000,1.000000,1.000000,0.916934,0.926312,0.906899,0.907243,0.600866,0.577580,0.613249,0.591113
0.105000,-0.345175,-0.533926,-0.798139,-0.992472,1.000000,1.000000,1.000000,1.000000,0.916934,0.926312,0.906899,0.907243,0.600866,0.577580,0.613249,0.591113
0.110000,-0.345175,-0.533926,-0.798139,-0.992472,1.000000,1.000000,1.000000,1.000000,0.916934,0.926312,0.906899,0.907243,0.600866,0.577580,0.613249,0.591113
0.115000,-0.345175,-0.533926,-0.798139,-0.992472,1.000000,1.000000,1.000000,1.000000,0.916934,0.926312,0.906899,0.907243,0.600866,0.577580,0.613249,0.591113
0.120000,-0.345175,-0.533926,-0.798139,-0.992472,1.000000,1.000000,1.000000,1.000000,0.916934,0.926312,0.906899,0.907243,0.600866,0.577580,0.613249,0.591113
0.125000,-0.345175,-0.533926,-0.798139,-0.992472,1.000000,1.000000,1.000000,1.000000,0.916934,0.926312,0.906899,0.907243,0.600866,0.577580,0.613249,0.591113
0.130000,-0.345175,-0.533926,-0.798139,-0.992472,1.000000,1.000000,1.000000,1.000000,0.916934,0.926312,0.906899,0.907243,0.600866,0.577580,0.613249,0.591113
0.135000,-0.345175,-0.533926,-0.798139,-0.992472,1.000000,1.000000,1.000000,1.000000,0.916934,0.926312,0.906899,0.907243,0.600866,0.577580,0.613249,0.591113
0.140000,-0.345175,-0.533926,-0.798139,-0.992472,1.000000,1.000000,1.000000,1.000000,0.916934,0.926312,0.906899,0.907243,0.600866,0.577580,0.613249,0.591113
0.145000,-0.345175,-0.533926,-0.798139,-0.992472,1.000000,1.000000,1.000000,1.000000,0.916934,0.926312,0.906899,0.907243,0.600866,0.577580,0.613249,0.591113
0.150000,-0.345175,-0.533926,-0.798139,-0.992472,1.000000,1.000000,1.000000,1.000000,0.916934,0.926312,0.906899,0.907243,0.600866,0.577580,0.613249,0.591113
0.155000,-0.345175,-0.533926,-0.798139,-0.992472,1.000000,1.000000,1.000000,1.000000,0.916934,0.926312,0.906899,0.907243,0.600866,0.577580,0.613249,0.591113
0.160000,-0.345175,-0.533926,-0.798139,-0.992472,1.000000,1.000000,1.000000,1.000000,0.916934,0.926312,0.906899,0.907243,0.600866,0.577580,0.613249,0.591113
0.165000,-0.345175,-0.533926,-0.798139,-0.992472,1.000000,1.000000,1.000000,1.000000,0.916934,0.926312,0.906899,0.907243,0.600866,0.577580,0.613249,0.591113
0.170000,-0.345175,-0.533926,-0.798139,-0.992472,1.000000,1.000000,1.000000,1.000000,0.916934,0.926312,0.906899,0.907243,0.600866,0.577580,0.613249,0.591113
0.175000,-0.345175,-0.533926,-0.798139,-0.992472,1.000000,1.000000,1.000000,1.000000,0.916934,0.926312,0.906899,0.907243,0.600866,0.577580,0.613249,0.591113
0.180000,-0.345175,-0.533926,-0.798139,-0.992472,1.000000,1.000000,1.000000,1.000000,0.916934,0.926312,0.906899,0.907243,0.600866,0.577580,0.613249,0.591113
0.185000,-0.345175,-0.533926,-0.798139,-0.992472,1.000000,1.000000,1.000000,1.000000,0.916934,0.926312,0.906899,0.907243,0.600866,0.577580,0.613249,0.591113
0.190000,-0.345175,-0.533926,-0.798139,-0.992472,1.000000,1.000000,1.000000,1.000000,0.916934,0.926312,0.906899,0.907243,0.600866,0.577580,0.613249,0.591113
0.195000,-0.345175,-0.533926,-0.798139,-0.992472,1.000000,1.000000,1.000000,1.000000,0.916934,0.926312,0.906899,0.907243,0.600866,0.577580,0.613249,0.591113
0.200000,-0.345175,-0.533926,-0.798139,-0.992472,1.000000,1.000000,1.000000,1.000000,0.916934,0.926312,0.906899,0.907243,0.600866,0.577580,0.613249,0.591113
0.205000,-0.345175,-0.533926,-0.798139,-0.992472,1.000000,1.000000,1.000000,1.000000,0.916934,0.926312,0.906899,0.907243,0.600866,0.577580,0.613249,0.591113
0.210000,-0.345175,-0.533926,-0.798139,-0.992472,1.000000,1.000000,1.000000,1.000000,0.916934,0.926312,0.906899,0.907243,0.600866,0.577580,0.613249,0.591113
0.215000,-0.345175,-0.533926,-0.798139,-0.992472,1.000000,1.000000,1.000000,1.000000,0.916934,0.926312,0.906899,0.907243,0.600866,0.577580,0.613249,0.591113
0.220000,-0.345175,-0.533926,-0.798139,-0.992472,1.000000,1.000000,1.000000,1.000000,0.916934,0.926312,0.906899,0.907243,0.600866,0.577580,0.613249,0.591113
0.225000,-0.345175,-0.533926,-0.798139,-0.992472,1.000000,1.000000,1.000000,1.000000,0.916934,0.926312,0.906899,0.907243,0.600866,0.577580,0.613249,0.591113
0.230000,-0.345175,-0.533926,-0.798139,-0.992472,1.000000,1.000000,1.000000,1.000000,0.916934,0.926312,0.906899,0.907243,0.600866,0.577580,0.613249,0.591113
0.235000,-0.345175,-0.533926,-0.798139,-0.992472,1.000000,1.000000,1.000000,1.000000,0.916934,0.926312,0.906899,0.907243,0.600866,0.577580,0.613249,0.591113
0.240000,-0.345175,-0.533926,-0.798139,-0.992472,1.000000,1.000000,1.000000,1.000000,0.916934,0.926312,0.906899,0.907243,0.600866,0.577580,0.613249,0.591113
0.245000,-0.345175,-0.533926,-0.798139,-0.992472,1.000000,1.000000,1.000000,1.000000,0.916934,0.926312,0.906899,0.907243,0.600866,0.577580,0.613249,0.591113
0.250000,-0.345175,-0.533926,-0.798139,-0.992472,1.000000,1.000000,1.000000,1.000000,0.916934,0.926312,0.906899,0.907243,0.600866,0.577580,0.613249,0.591113
0.255000,-0.345175,-0.533926,-0.798139,-0.992472,1.000000,1.000000,1.000000,1.000000,0.916934,0.926312,0.906899,0.907243,0.600866,0.577580,0.613249,0.591113
0.260000,-0.345175,-0.533926,-0.798139,-0.992472,1.000000,1.000000,1.000000,1.000000,0.916934,0.926312,0.906899,0.907243,0.600866,0.577580,0.613249,0.591113
0.265000,-0.345175,-0.533926,-0.798139,-0.992472,1.000000,1.000000,1.000000,1.000000,0.916934,0.926312,0.906899,0.907243,0.600866,0.577580,0.613249,0.591113
0.270000,-0.345175,-0.533926,-0.798139,-0.992472,1.000000,1.000000,1.000000,1.000000,0.916934,0.926312,0.906899,0.907243,0.600866,0.577580,0.613249,0.591113
0.275000,-0.345175,-0.533926,-0.798139,-0.992472,1.000000,1.000000,1.000000,1.000000,0.916934,0.926312,0.906899,0.907243,0.600866,0.577580,0.613249,0.591113
0.280000,-0.345175,-0.533926,-0.798139,-0.992472,1.000000,1.000000,1.000000,1.000000,0.916934,0.926312,0.906899,0.907243,0.600866,0.577580,0.613249,0.591113
0.285000,-0.345175,-0.533926,-0.798139,-0.992472,1.000000,1.000000,1.000000,1.000000,0.916934,0.926312,0.906899,0.907243,0.600866,0.577580,0.613249,0.591113
0.290000,-0.345175,-0.533926,-0.798139,-0.992472,1.000000,1.000000,1.000000,1.000000,0.916934,0.926312,0.906899,0.907243,0.600866,0.577580,0.613249,0.591113
0.295000,-0.345175,-0.533926,-0.798139,-0.992472,1.000000,1.000000,1.000000,1.000000,0.916934,0.926312,0.906899,0.907243,0.600866,0.577580,0.613249,0.591113
0.300000,-0.345175,-0.533926,-0.798139,-0.992472,1.000000,1.000000,1.000000,1.000000,0.916934,0.926312,0.906899,0.907243,0.600866,0.577580,0.613249,0.591113
0.305000,-0.345175,-0.533926,-0.798139,-0.992472,1.000000,1.000000,1.000000,1.000000,0.916934,0.926312,0.906899,0.907243,0.600866,0.577580,0.613249,0.591113
0.310000,-0.345175,-0.533926,-0.798139,-0.992472,1.000000,1.000000,1.000000,1.000000,0.916934,0.926312,0.906899,0.907243,0.600866,0.577580,0.613249,0.591113
0.315000,-0.345175,-0.533926,-0.798139,-0.992472,1.000000,1.000000,1.000000,1.000000,0.916934,0.926312,0.906899,0.907243,0.600866,0.577580,0.613249,0.591113
0.320000,-0.345175,-0.533926,-0.798139,-0.992472,1.000000,1.000000,1.000000,1.000000,0.916934,0.926312,0.906899,0.907243,0.600866,0.577580,0.613249,0.591113
0.325000,-0.345175,-0.533926,-0.798139,-0.992472,1.000000,1.000000,1.000000,1.000000,0.916934,0.926312,0.906899,0.907243,0.600866,0.577580,0.613249,0.591113
0.330000,-0.345175,-0.533926,-0.798139,-0.992472,1.000000,1.000000,1.000000,1.000000,0.916934,0.926312,0.906899,0.907243,0.600866,0.577580,0.613249,0.591113
0.335000,-0.345175,-0.533926,-0.798139,-0.992472,1.000000,1.000000,1.000000,1.000000,0.916934,0.926312,0.906899,0.907243,0.600866,0.577580,0.613249,0.591113
0.340000,-0.345175,-0.533926,-0.798139,-0.992472,1.000000,1.000000,1.000000,1.000000,0.916934,0.926312,0.906899,0.907243,0.600866,0.577580,0.613249,0.591113
0.345000,-0.345175,-0.533926,-0.798139,-0.992472,1.000000,1.000000,1.000000,1.000000,0.916934,0.926312,0.906899,0.907243,0.600866,0.577580,0.613249,0.591113
0.350000,-0.345175,-0.533926,-0.798139,-0.992472,1.000000,1.000000,1.000000,1.000000,0.916934,0.926312,0.906899,0.907243,0.600866,0.577580,0.613249,0.591113
0.355000,-0.345175,-0.533926,-0.798139,-0.992472,1.000000,1.000000,1.000000,1.000000,0.916934,0.926312,0.906899,0.907243,0.600866,0.577580,0.613249,0.591113
0.360000,-0.345175,-0.533926,-0.798139,-0.992472,1.000000,1.000000,1.000000,1.000000,0.916934,0.926312,0.906899,0.907243,0.600866,0.577580,0.613249,0.591113
0.365000,-0.345175,-0.533926,-0.798139,-0.992472,1.000000,1.000000,1.000000,1.000000,0.916934,0.926312,0.906899,0.907243,0.600866,0.577580,0.613249,0.591113
0.370000,-0.345175,-0.533926,-0.798139,-0.992472,1.000000,1.000000,1.000000,1.000000,0.916934,0.926312,0.906899,0.907243,0.600866,0.577580,0.613249,0.591113
0.375000,-0.345175,-0.533926,-0.798139,-0.992472,1.000000,1.000000,1.000000,1.000000,0.916934,0.926312,0.906899,0.907243,0.600866,0.577580,0.613249,0.591113
0.380000,-0.345175,-0.533926,-0.798139,-0.992472,1.000000,1.000000,1.000000,1.000000,0.916934,0.926312,0.906899,0.907243,0.600866,0.577580,0.613249,0.591113
0.385000,-0.345175,-0.533926,-0.798139,-0.992472,1.000000,1.000000,1.000000,1.000000,0.916934,0.926312,0.906899,0.907243,0.600866,0.577580,0.613249,0.591113
0.390000,-0.345175,-0.533926,-0.798139,-0.992472,1.000000,1.000000,1.000000,1.000000,0.916934,0.926312,0.906899,0.907243,0.600866,0.577580,0.613249,0.591113
0.395000,-0.345175,-0.533926,-0.798139,-0.992472,1.000000,1.000000,1.000000,1.000000,0.916934,0.926312,0.906899,0.907243,0.600866,0.577580,0.613249,0.591113
0.400000,-0.345175,-0.533926,-0.798139,-0.992472,1.000000,1.000000,1.000000,1.000000,0.916934,0.926312,0.906899,0.907243,0.600866,0.577580,0.613249,0.591113
0.405000,-0.345175,-0.533926,-0.798139,-0.992472,1.000000,1.000000,1.000000,1.000000,0.916934,0.926312,0.906899,0.907243,0.600866,0.577580,0.613249,0.591113
0.410000,-0.345175,-0.533926,-0.798139,-0.992472,1.000000,1.000000,1.000000,1.000000,0.916934,0.926312,0.906899,0.907243,0.600866,0.577580,0.613249,0.591113
0.415000,-0.345175,-0.533926,-0.798139,-0.992472,1.000000,1.000000,1.000000,1.000000,0.916934,0.926312,0.906899,0.907243,0.600866,0.577580,0.613249,0.591113
0.420000,-0.345175,-0.533926,-0.798139,-0.992472,1.000000,1.000000,1.000000,1.000000,0.916934,0.926312,0.906899,0.907243,0.600866,0.577580,0.613249,0.591113
0.425000,-0.345175,-0.533926,-0.798139,-0.992472,1.000000,1.000000,1.000000,1.000000,0.916934,0.926312,0.906899,0.907243,0.600866,0.577580,0.613249,0.591113
0.430000,-0.345175,-0.533926,-0.798139,-0.992472,1.000000,1.000000,1.000000,1.000000,0.916934,0.926312,0.906899,0.907243,0.600866,0.577580,0.613249,0.591113
0.435000,-0.345175,-0.533926,-0.798139,-0.992472,1.000000,1.000000,1.000000,1.000000,0.916934,0.926312,0.906899,0.907243,0.600866,0.577580,0.613249,0.591113
0.440000,-0.345175,-0.533926,-0.798139,-0.992472,1.000000,1.000000,1.000000,1.000000,0.916934,0.926312,0.906899,0.907243,0.600866,0.577580,0.613249,0.591113
0.445000,-0.345175,-0.533926,-0.798139,-0.992472,1.000000,1.000000,1.000000,1.000000,0.916934,0.926312,0.906899,0.907243,0.600866,0.577580,0.613249,0.591113
0.450000,-0.345175,-0.533926,-0.798139,-0.992472,1.000000,1.000000,1.000000,1.000000,0.916934,0.926312,0.906899,0.907243,0.600866,0.577580,0.613249,0.591113
0.455000,-0.345175,-0.533926,-0.798139,-0.992472,1.000000,1.000000,1.000000,1.000000,0.916934,0.926312,0.906899,0.907243,0.600866,0.577580,0.613249,0.591113
0.460000,-0.345175,-0.533926,-0.798139,-0.992472,1.000000,1.000000,1.000000,1.000000,0.916934,0.926312,0.906899,0.907243,0.600866,0.577580,0.613249,0.591113
0.465000,-0.345175,-0.533926,-0.798139,-0.992472,1.000000,1.000000,1.000000,1.000000,0.916934,0.926312,0.906899,0.907243,0.600866,0.577580,0.613249,0.591113
0.470000,-0.345175,-0.533926,-0.798139,-0.992472,1.000000,1.000000,1.000000,1.000000,0.916934,0.926312,0.906899,0.907243,0.600866,0.577580,0.613249,0.591113
0.475000,-0.345175,-0.533926,-0.798139,-0.992472,1.000000,1.000000,1.000000,1.000000,0.916934,0.926312,0.906899,0.907243,0.600866,0.577580,0.613249,0.591113
0.480000,-0.345175,-0.533926,-0.798139,-0.992472,1.000000,1.000000,1.000000,1.000000,0.916934,0.926312,0.906899,0.907243,0.600866,0.577580,0.613249,0.591113
0.485000,-0.345175,-0.533926,-0.798139,-0.992472,1.000000,1.000000,1.000000,1.000000,0.916934,0.926312,0.906899,0.907243,0.600866,0.577580,0.613249,0.591113
0.490000,-0.345175,-0.533926,-0.798139,-0.992472,1.000000,1.000000,1.000000,1.000000,0.916934,0.926312,0.906899,0.907243,0.600866,0.577580,0.613249,0.591113
0.495000,-0.345175,-0.533926,-0.798139,-0.992472,1.000000,1.000000,1.000000,1.000000,0.916934,0.926312,0.906899,0.907243,0.600866,0.577580,0.613249,0.591113
0.500000,-0.345175,-0.533926,-0.798139,-0.992472,1.000000,1.000000,1.000000,1.000000,0.916934,0.926312,0.906899,0.907243,0.600866,0.577580,0.613249,0.591113
0.505000,-0.345175,-0.533926,-0.798139,-0.992472,1.000000,1.000000,1.000000,1.000000,0.916934,0.926312,0.906899,0.907243,0.600866,0.577580,0.613249,0.591113
0.510000,-0.345175,-0.533926,-0.798139,-0.992472,1.000000,1.000000,1.000000,1.000000,0.916934,0.926312,0.906899,0.907243,0.600866,0.577580,0.613249,0.591113
0.515000,-0.345175,-0.533926,-0.798139,-0.992472,1.000000,1.000000,1.000000,1.000000,0.916934,0.926312,0.906899,0.907243,0.600866,0.577580,0.613249,0.591113
0.520000,-0.345175,-0.533926,-0.798139,-0.992472,1.000000,1.000000,1.000000,1.000000,0.916934,0.926312,0.906899,0.907243,0.600866,0.577580,0.613249,0.591113
0.525000,-0.345175,-0.533926,-0.798139,-0.992472,1.000000,1.000000,1.000000,1.000000,0.916934,0.926312,0.906899,0.907243,0.600866,0.577580,0.613249,0.591113
0.530000,-0.345175,-0.533926,-0.798139,-0.992472,1.000000,1.000000,1.000000,1.000000,0.916934,0.926312,0.906899,0.907243,0.600866,0.577580,0.613249,0.591113
0.535000,-0.345175,-0.533926,-0.798139,-0.992472,1.000000,1.000000,1.000000,1.000000,0.916934,0.926312,0.906899,0.907243,0.600866,0.577580,0.613249,0.591113
0.540000,-0.345175,-0.533926,-0.798139,-0.992472,1.000000,1.000000,1.000000,1.000000,0.916934,0.926312,0.906899,0.907243,0.600866,0.577580,0.613249,0.591113
0.545000,-0.345175,-0.533926,-0.798139,-0.992472,1.000000,1.000000,1.000000,1.000000,0.916934,0.926312,0.906899,0.907243,0.600866,0.577580,0.613249,0.591113
0.550000,-0.345175,-0.533926,-0.798139,-0.992472,1.000000,1.000000,1.000000,1.000000,0.916934,0.926312,0.906899,0.907243,0.600866,0.577580,0.613249,0.591113
0.555000,-0.345175,-0.533926,-0.798139,-0.992472,1.000000,1.000000,1.000000,1.000000,0.916934,0.926312,0.906899,0.907243,0.600866,0.577580,0.613249,0.591113
0.560000,-0.345175,-0.533926,-0.798139,-0.992472,1.000000,1.000000,1.000000,1.000000,0.916934,0.926312,0.906899,0.907243,0.600866,0.577580,0.613249,0.591113
0.565000,-0.345175,-0.533926,-0.798139,-0.992472,1.000000,1.000000,1.000000,1.000000,0.916934,0.926312,0.906899,0.907243,0.600866,0.577580,0.613249,0.591113
0.570000,-0.345175,-0.533926,-0.798139,-0.992472,1.000000,1.000000,1.000000,1.000000,0.916934,0.926312,0.906899,0.907243,0.600866,0.577580,0.613249,0.591113
0.575000,-0.345175,-0.533926,-0.798139,-0.992472,1.000000,1.000000,1.000000,1.000000,0.916934,0.926312,0.906899,0.907243,0.600866,0.577580,0.613249,0.591113
0.580000,-0.345175,-0.533926,-0.798139,-0.992472,1.000000,1.000000,1.000000,1.000000,0.916934,0.926312,0.906899,0.907243,0.600866,0.577580,0.613249,0.591113
0.585000,-0.345175,-0.533926,-0.798139,-0.992472,1.000000,1.000000,1.000000,1.000000,0.916934,0.926312,0.906899,0.907243,0.600866,0.577580,0.613249,0.591113
0.590000,-0.345175,-0.533926,-0.798139,-0.992472,1.000000,1.000000,1.000000,1.000000,0.916934,0.926312,0.906899,0.907243,0.600866,0.577580,0.613249,0.591113
0.595000,-0.345175,-0.533926,-0.798139,-0.992472,1.000000,1.000000,1.000000,1.000000,0.916934,0.926312,0.906899,0.907243,0.600866,0.577580,0.613249,0.591113
0.600000,-0.345175,-0.533926,-0.798139,-0.992472,1.000000,1.000000,1.000000,1.000000,0.916934,0.926312,0.906899,0.907243,0.600866,0.577580,0.613249,0.591113
0.605000,-0.345175,-0.533926,-0.798139,-0.992472,1.000000,1.000000,1.000000,1.000000,0.916934,0.926312,0.906899,0.907243,0.600866,0.577580,0.613249,0.591113
0.610000,-0.345175,-0.533926,-0.798139,-0.992472,1.000000,1.000000,1.000000,1.000000,0.916934,0.926312,0.906899,0.907243,0.600866,0.577580,0.613249,0.591113
